---
title: "AMBA AXI4-Lite Protocol Deep Dive"
tags:
  - axi
  - amba
  - bus-protocol
  - arm
  - interconnect
date_created: 2026-09-10
status: "Completed"
---

# 🛣️ AMBA AXI4-Lite Protocol Deep Dive

> [!IMPORTANT] **Why Every Major Silicon Company (ARM, Apple, Qualcomm, NVIDIA) Uses AXI**
> If you connect hardware blocks with arbitrary custom wires, your system quickly becomes an unmaintainable rat's nest.
> In 2003, ARM introduced the **AMBA AXI (Advanced eXtensible Interface)** standard. Today, virtually every System-on-Chip (SoC) in your iPhone, Tesla autopilot computer, and NVIDIA GPU uses AXI to connect processors, accelerators, and memory controllers together.

---

## 1. The Real-World Intuition: The Registered Courier Postal System

Imagine you want to send a certified package to a friend:
1. You can't just throw the package into the air and hope they catch it.
2. You walk to their door, hold out the package, and ring the doorbell (**I am ready to deliver: `VALID = 1`**).
3. If your friend is busy in the bathroom, they can't take it yet (**`READY = 0`**).
4. You **must stand there holding the package** until your friend opens the door and extends their hands (**`READY = 1`**).
5. At the exact moment your hands touch and the package changes ownership, the transfer is complete! (**`VALID && READY == 1`**).
6. Later, your friend signs an official receipt and mails it back to you confirming they opened it without damage (**Write Response: `B` Channel**).

This is precisely how **AMBA AXI** works.

---

## 2. The 5 Independent Channels of AXI

Unlike legacy buses (like PCI or APB) where address and data share wires, AXI separates communication into **5 completely independent, unidirectional channels**:

```
                       +-----------------------------------+
                       |         AXI Interconnect          |
                       +-----------------------------------+
                             ^                       |
            Write Address    |   AWADDR, AWVALID     |
         +-------------------+-----------------------+
         |                   |   AWREADY             |
         |                   |                       v
         |  Write Data       |   WDATA, WSTRB, WVALID
[ MASTER |-------------------+-----------------------> [ SLAVE ]
  (CPU)  |                   |   WREADY              |
         |  Write Response   |   BRESP, BVALID       |
         |<------------------+-----------------------+
         |                   |   BREADY              |
         |                   |                       |
         |  Read Address     |   ARADDR, ARVALID     |
         |-------------------+-----------------------+
         |                   |   ARREADY             |
         |                   |                       v
         |  Read Data        |   RDATA, RRESP, RVALID
         |<------------------+-----------------------+
         |                   |   RREADY              |
         +-------------------+-----------------------+
```

### The 3 Write Channels:
1. **Write Address Channel (`AW`)**:
   - Master issues the target memory address (`AWADDR`) where it wants to write.
2. **Write Data Channel (`W`)**:
   - Master issues the actual payload data bytes (`WDATA`) and byte strobe flags (`WSTRB`).
3. **Write Response Channel (`B`)**:
   - Slave sends an acknowledgment back to the Master (`BRESP`) confirming whether the write succeeded or failed.

### The 2 Read Channels:
4. **Read Address Channel (`AR`)**:
   - Master issues the memory address (`ARADDR`) it wants to read from.
5. **Read Data Channel (`R`)**:
   - Slave returns the retrieved data (`RDATA`) along with a status code (`RRESP`).

> [!TIP] **Why are Read and Write completely separate?**
> Because they are independent physical channels, a CPU can simultaneously **read instructions from memory** while **streaming write data into an accelerator** without them blocking each other! This allows full-duplex communication.

---

## 3. The Sacred Law of the AXI Handshake

Every single one of the 5 channels uses the identical **`VALID` / `READY` Handshake Rule**:

```
Clock        __    __    __    __    __    __
clk       __/  \__/  \__/  \__/  \__/  \__/  \__
               |     |     |     |     |
VALID     _____/=================\___________  (Driven by Sender)
               |     |     |     |
READY     ___________/===========\___________  (Driven by Receiver)
               |     |     |     |
DATA/ADDR -----<     VALID DATA  >------------
               |     |     |     |
Handshake      No    No   TRANSFER! No    No
                           (Cycle 3)
```

### The 3 Golden Rules of AXI:
1. **Transfer Condition**: Information transfers **if and only if** both `VALID` and `READY` are high on the rising edge of `clk`:
   $$\text{Transfer Occurred} \iff (\text{VALID} == 1) \ \&\& \ (\text{READY} == 1)$$
2. **No Backing Out**: Once a sender asserts `VALID = 1`, it **MUST keep `VALID` high and keep its payload signals completely stable** until `READY = 1` occurs! A sender cannot change its mind and drop `VALID`.
3. **No Deadlock Condition**: A sender must **NEVER** wait for `READY` to go high before asserting `VALID`. `VALID` can be asserted unconditionally. However, a receiver **IS** permitted to wait for `VALID` before asserting `READY`.

---

## 4. Signal Dictionary: AXI4-Lite (32-bit)

Here is the exact pinout table implemented in our synthesizable SystemVerilog interfaces:

| Channel | Signal Name | Direction (Master $\rightarrow$ Slave) | Width | Description |
| :--- | :--- | :---: | :---: | :--- |
| **Global** | `ACLK` | Master $\rightarrow$ Slave | 1 | Global Clock (rising edge triggered). |
| | `ARESETn` | Master $\rightarrow$ Slave | 1 | Global Reset (**active-LOW**). |
| **AW** | `AWADDR` | Master $\rightarrow$ Slave | 32 | Target write memory address. |
| | `AWPROT` | Master $\rightarrow$ Slave | 3 | Protection level (Normal/Privileged/Secure). |
| | `AWVALID`| Master $\rightarrow$ Slave | 1 | Master indicates write address is valid. |
| | `AWREADY`| Slave $\rightarrow$ Master | 1 | Slave indicates it is ready to accept write address. |
| **W** | `WDATA` | Master $\rightarrow$ Slave | 32 | Write payload data (4 bytes). |
| | `WSTRB` | Master $\rightarrow$ Slave | 4 | Byte strobes (`4'b1111` = word, `4'b0001` = byte 0). |
| | `WVALID` | Master $\rightarrow$ Slave | 1 | Master indicates write data is valid. |
| | `WREADY` | Slave $\rightarrow$ Master | 1 | Slave indicates it is ready to accept write data. |
| **B** | `BRESP` | Slave $\rightarrow$ Master | 2 | Write response status code. |
| | `BVALID` | Slave $\rightarrow$ Master | 1 | Slave indicates write response is valid. |
| | `BREADY` | Master $\rightarrow$ Slave | 1 | Master indicates it is ready to accept response. |
| **AR** | `ARADDR` | Master $\rightarrow$ Slave | 32 | Target read memory address. |
| | `ARPROT` | Master $\rightarrow$ Slave | 3 | Protection level. |
| | `ARVALID`| Master $\rightarrow$ Slave | 1 | Master indicates read address is valid. |
| | `ARREADY`| Slave $\rightarrow$ Master | 1 | Slave indicates it is ready to accept read address. |
| **R** | `RDATA` | Slave $\rightarrow$ Master | 32 | Read payload data returned to Master. |
| | `RRESP` | Slave $\rightarrow$ Master | 2 | Read response status code. |
| | `RVALID` | Slave $\rightarrow$ Master | 1 | Slave indicates read data is valid. |
| | `RREADY` | Master $\rightarrow$ Slave | 1 | Master indicates it is ready to accept read data. |

---

## 5. Response Status Codes (`BRESP` and `RRESP`)

Whenever a read or write occurs, the slave sends a 2-bit response code:

| Value | Encoding | Name | Meaning | Real-World Scenario |
| :---: | :---: | :--- | :--- | :--- |
| `2'b00` | `0` | **`OKAY`** | **Normal Success** | Memory read/write completed successfully. |
| `2'b01` | `1` | **`EXOKAY`** | Exclusive OK | Used for atomic mutex locks in Full AXI4 (treated as OKAY in Lite). |
| `2'b10` | `2` | **`SLVERR`** | **Slave Error** | The peripheral received the request, but encountered an error (e.g. attempting to write to a read-only CSR, or bad parameter). |
| `2'b11` | `3` | **`DECERR`** | **Decode Error** | The interconnect could not find any device at that address (attempted access to an unmapped physical address)! |

---

## 6. AXI4-Lite vs. Full AXI4

Why did we choose **AXI4-Lite** for our accelerator control and interconnect?

- **Full AXI4**:
  - Supports **Bursting** (sending 256 consecutive data beats with only 1 address phase).
  - Supports **Out-of-Order Transactions** (using `ID` tags: requests can return in any order).
  - Supports unaligned transfers, cacheability signals, atomic locking.
  - *Drawback*: Requires thousands of additional logic gates and massive FIFO buffers.
- **AXI4-Lite**:
  - A clean, streamlined subset: every data beat has an address phase, transfers are strictly 32-bit or 64-bit, no burst IDs.
  - **Ideal for Control & Status Registers (CSRs)**, low-to-medium bandwidth peripherals, and memory-mapped coprocessors.
  - Minimal silicon footprint and zero out-of-order reordering bugs!

---

## Next Steps
Now let's look at the actual synthesizable finite state machines (FSMs) for our Master and Slave hardware blocks:
👉 [[02_AXI4_Lite_Master_and_Slave_Design|Proceed to AXI4-Lite Master & Slave Implementation]]
